!Agilent Technologies,N5222A,MY51421306,A.09.85.08
!Agilent N5222A: A.09.85.08
!Date: Monday, May 06, 2013 14:39:55
!Correction: S11(Full 2 Port(1,2)) 
!S21(Full 2 Port(1,2)) 
!S12(Full 2 Port(1,2)) 
!S22(Full 2 Port(1,2)) 
!S2P File: Measurements: S11, S21, S12, S22:
# Hz S  dB   R 50
100000000 -2.3952966 -20.484964 19.574661 166.89343 -34.365593 44.936245 -2.8253493 -23.235319
101100000 -2.3997169 -20.868727 19.580858 166.60938 -33.993717 44.08017 -2.8141723 -23.527966
102200000 -2.4042666 -21.080181 19.580008 166.32855 -33.971397 46.269276 -2.8272049 -23.728619
103300000 -2.4162571 -21.358704 19.589195 166.01341 -33.527092 46.561832 -2.8359571 -23.923542
104400000 -2.4102361 -21.575449 19.577385 165.67949 -34.047703 45.481895 -2.8525329 -24.232027
105500000 -2.4141169 -21.88518 19.572407 165.37558 -34.279087 47.195549 -2.8497541 -24.396471
106600000 -2.4309349 -22.117289 19.566692 165.02701 -34.356056 46.845486 -2.8658092 -24.620432
107700000 -2.4276049 -22.477104 19.558775 164.72713 -32.956299 47.39399 -2.9014184 -25.046049
108800000 -2.4547439 -22.565825 19.543394 164.39661 -33.699654 45.520729 -2.8998001 -25.280119
109900000 -2.4759915 -22.831285 19.542721 164.13193 -33.537186 48.399227 -2.9137735 -25.492483
111000000 -2.4637496 -23.067177 19.528408 163.82634 -33.736282 45.347355 -2.9497378 -25.678085
112100000 -2.4849653 -23.194069 19.508114 163.58429 -33.670086 44.598759 -2.9626808 -25.819914
113200000 -2.4795165 -23.453861 19.498943 163.27902 -33.978714 45.742363 -2.9783492 -26.11916
114300000 -2.5021048 -23.763752 19.480089 162.99495 -33.659603 45.772552 -2.9759099 -26.286003
115400000 -2.5148571 -23.935305 19.470716 162.77286 -33.367748 45.160324 -2.9907618 -26.477057
116500000 -2.5379446 -24.182514 19.453636 162.47885 -33.354683 43.839855 -3.0070496 -26.716526
117600000 -2.5455289 -24.318304 19.430887 162.26964 -33.49794 45.518635 -3.0211968 -26.875204
118700000 -2.5570512 -24.572306 19.414911 162.04584 -33.091587 46.369862 -3.0406277 -27.051695
119800000 -2.5502675 -24.694279 19.39921 161.82808 -33.413418 45.72316 -3.0356226 -27.283012
120900000 -2.5596795 -24.934568 19.379074 161.59409 -33.09827 46.43433 -3.0568464 -27.491091
122000000 -2.581974 -25.160433 19.362926 161.38716 -33.010117 43.825096 -3.0756359 -27.573751
123100000 -2.5977573 -25.344835 19.337999 161.17329 -33.36797 47.264061 -3.0725458 -27.808779
124200000 -2.5982027 -25.419239 19.317955 161.03508 -32.857323 43.489414 -3.0859866 -27.991014
125300000 -2.5921407 -25.579781 19.323662 160.83208 -33.038113 43.215164 -3.1217482 -28.152029
126400000 -2.6010597 -25.773739 19.295118 160.68716 -33.188869 46.798405 -3.1124759 -28.348419
127500000 -2.6240115 -25.975563 19.278547 160.52692 -32.892643 46.047726 -3.1193216 -28.498943
128600000 -2.6204958 -26.185854 19.254717 160.3701 -33.017754 47.781075 -3.1242855 -28.71735
129700000 -2.6038971 -26.257421 19.244934 160.25961 -32.826778 45.233067 -3.1224527 -28.851751
130800000 -2.6206787 -26.465517 19.228121 160.2114 -32.736511 45.776993 -3.14237 -29.044468
131900000 -2.6269517 -26.568972 19.204958 160.13174 -32.668991 46.731754 -3.1398852 -29.211634
133000000 -2.6231725 -26.80335 19.197628 160.07741 -32.91684 45.256973 -3.1336453 -29.402367
134100000 -2.6103816 -27.085274 19.190945 160.01073 -32.63327 47.403057 -3.13765 -29.599953
135200000 -2.6123536 -27.221937 19.183338 159.9653 -32.770199 46.787697 -3.1335332 -29.74725
136300000 -2.6133113 -27.467993 19.187899 159.9424 -32.556919 46.500118 -3.1444919 -29.941299
137400000 -2.605093 -27.676723 19.188717 159.83781 -32.859005 46.054527 -3.1414559 -30.10927
138500000 -2.611202 -27.897434 19.192516 159.78358 -32.775711 45.437973 -3.1519628 -30.328926
139600000 -2.6144724 -27.931288 19.197279 159.63591 -32.459343 44.942604 -3.1546476 -30.4147
140700000 -2.6104741 -28.222725 19.203108 159.53183 -32.296566 46.004368 -3.1466138 -30.613676
141800000 -2.6114748 -28.347818 19.206804 159.40387 -32.308769 47.117832 -3.1454926 -30.8277
142900000 -2.6131241 -28.611031 19.215162 159.2319 -31.894325 47.927891 -3.1462123 -31.055119
144000000 -2.5994513 -28.87887 19.223047 159.10442 -32.161304 46.32798 -3.1498125 -31.29442
145100000 -2.5977941 -29.037416 19.233276 158.89172 -32.378448 45.194183 -3.1310334 -31.453226
146200000 -2.5999296 -29.237028 19.249702 158.73807 -32.261963 47.052773 -3.1483977 -31.711691
147300000 -2.6051979 -29.49523 19.25378 158.51198 -31.93915 47.538513 -3.1410556 -31.891598
148400000 -2.6035705 -29.638803 19.262257 158.33034 -32.240311 46.10556 -3.1435158 -32.025097
149500000 -2.6044323 -29.936331 19.268534 158.05002 -31.868917 46.679455 -3.1429219 -32.355854
150600000 -2.6009574 -30.047123 19.280817 157.84375 -31.850559 45.995426 -3.1304452 -32.521877
151700000 -2.6024392 -30.295778 19.290663 157.60863 -32.015709 47.613914 -3.1105306 -32.7006
152800000 -2.6108608 -30.487465 19.295704 157.35907 -31.501482 46.761402 -3.1083729 -32.89185
153900000 -2.610599 -30.748301 19.312727 157.05399 -31.579035 47.674221 -3.0981786 -33.258167
155000000 -2.6130679 -30.993902 19.31109 156.71791 -31.492603 48.83535 -3.0764604 -33.664261
156100000 -2.6055574 -31.198099 19.304928 156.38026 -31.535645 46.434067 -3.0892229 -34.070145
157200000 -2.6084521 -31.43845 19.298267 156.10677 -31.563437 48.270496 -3.1082757 -34.413303
158300000 -2.6155183 -31.649817 19.289867 155.84138 -31.574488 46.281132 -3.1373205 -34.692593
159400000 -2.6030431 -31.849066 19.281885 155.62375 -31.483852 45.911678 -3.1476228 -34.936478
160500000 -2.6166503 -32.088139 19.278786 155.35762 -31.26688 47.808376 -3.1624787 -35.175903
161600000 -2.6217067 -32.308765 19.269375 155.10988 -31.44895 46.787235 -3.1671417 -35.425674
162700000 -2.608186 -32.568127 19.271421 154.87543 -31.285555 45.432369 -3.1901617 -35.680038
163800000 -2.6374135 -32.793167 19.258791 154.61641 -31.324165 45.804501 -3.1955299 -35.824787
164900000 -2.6350501 -33.051975 19.257412 154.39822 -31.189585 46.26017 -3.2124557 -36.060341
166000000 -2.6425753 -33.356083 19.242529 154.14601 -31.083147 45.675304 -3.2224216 -36.30381
167100000 -2.6383481 -33.571331 19.234621 153.88257 -31.019806 45.970345 -3.2341771 -36.545998
168200000 -2.661525 -33.75721 19.234385 153.6963 -30.701193 43.952034 -3.2424676 -36.743649
169300000 -2.6550858 -34.033955 19.217546 153.43401 -30.899679 46.192528 -3.251905 -36.93856
170400000 -2.6715209 -34.269379 19.203627 153.23227 -30.906414 45.744289 -3.2685258 -37.250412
171500000 -2.6744723 -34.522133 19.190653 153.03706 -30.899536 45.043793 -3.2785468 -37.39743
172600000 -2.6752272 -34.768745 19.186253 152.84126 -30.890177 45.157711 -3.290818 -37.572456
173700000 -2.6788378 -34.955349 19.175179 152.66629 -30.725878 44.726734 -3.3081093 -37.722889
174800000 -2.6872325 -35.234726 19.168718 152.47641 -30.73024 44.244968 -3.3255832 -37.9594
175900000 -2.6882336 -35.542473 19.159878 152.30045 -30.674328 45.250355 -3.3170018 -38.066845
177000000 -2.7071569 -35.623302 19.16188 152.243 -30.120199 46.961903 -3.3405275 -38.287045
178100000 -2.707341 -35.928165 19.154583 152.10297 -30.66659 42.952198 -3.3416731 -38.385181
179200000 -2.7157111 -36.189964 19.133511 151.95663 -30.709061 46.287685 -3.3548472 -38.524185
180300000 -2.7279289 -36.566257 19.121948 151.82831 -30.957882 44.268429 -3.3670244 -38.716057
181400000 -2.7330015 -36.819332 19.121832 151.71503 -30.640347 43.182159 -3.376518 -38.953732
182500000 -2.7460008 -37.00214 19.120783 151.59335 -30.790905 46.092419 -3.3661017 -39.024807
183600000 -2.7336547 -37.211033 19.12841 151.48503 -30.66424 45.0951 -3.3837724 -39.284317
184700000 -2.7618244 -37.435585 19.131012 151.41365 -30.289686 42.660599 -3.3814125 -39.452633
185800000 -2.7554746 -37.702648 19.113581 151.2618 -30.200161 42.623375 -3.4117484 -39.471081
186900000 -2.7711055 -37.91695 19.114725 151.18871 -30.475538 43.990849 -3.3914073 -39.663273
188000000 -2.7673032 -38.191757 19.126842 151.06564 -30.526258 43.702034 -3.3842599 -39.963467
189100000 -2.7963152 -38.385838 19.107624 150.91875 -30.704182 45.591236 -3.4036143 -40.133583
190200000 -2.7864776 -38.552418 19.12225 150.81247 -30.495916 44.539185 -3.398577 -40.298157
191300000 -2.8064818 -38.845032 19.119705 150.76488 -30.538694 43.884251 -3.4066386 -40.408985
192400000 -2.8248639 -39.094391 19.121086 150.5544 -30.563286 44.028458 -3.3975773 -40.737789
193500000 -2.8374536 -39.33353 19.141335 150.43478 -30.390503 42.717915 -3.4200659 -40.706699
194600000 -2.8404863 -39.566479 19.143763 150.35921 -30.525421 44.671356 -3.4160655 -41.030609
195700000 -2.8462648 -39.785069 19.126375 150.21696 -30.583801 45.716839 -3.4107158 -41.123096
196800000 -2.8564947 -39.917583 19.145876 150.11092 -30.459871 42.762779 -3.4076915 -41.247314
197900000 -2.8461065 -40.171528 19.138582 149.93523 -30.308647 45.241543 -3.4151735 -41.483757
199000000 -2.8673894 -40.404911 19.154276 149.83467 -30.181229 44.922905 -3.4132473 -41.630398
200100000 -2.8783615 -40.644112 19.154856 149.66553 -30.088036 44.028484 -3.4145107 -41.887299
201200000 -2.8791959 -40.829403 19.151413 149.55551 -30.096777 43.234085 -3.4028592 -41.944244
202300000 -2.8942208 -41.067635 19.174736 149.38663 -30.0756 44.100353 -3.4028075 -42.240654
203400000 -2.8936477 -41.315853 19.165432 149.24786 -29.839409 44.334541 -3.400209 -42.351597
204500000 -2.9117594 -41.401569 19.173014 149.11703 -29.6749 43.651566 -3.405293 -42.61953
205600000 -2.9022288 -41.712685 19.183502 148.97769 -29.943567 44.490353 -3.4017003 -42.698124
206700000 -2.9277644 -41.855957 19.19426 148.83446 -29.877287 45.488564 -3.3869028 -42.971413
207800000 -2.9247236 -42.118279 19.214077 148.62903 -29.75831 43.045536 -3.4100132 -43.173832
208900000 -2.9183679 -42.261044 19.201399 148.42601 -29.500147 45.083668 -3.3895857 -43.427273
210000000 -2.9330561 -42.450272 19.213766 148.30963 -29.627312 45.729305 -3.3834789 -43.520542
211100000 -2.922699 -42.630077 19.214287 148.12292 -29.79784 46.653656 -3.3902102 -43.798412
212200000 -2.9487996 -42.855652 19.230156 147.92361 -29.68116 46.282318 -3.3903003 -43.94487
213300000 -2.953562 -43.101025 19.241657 147.70316 -29.724026 44.256279 -3.3957679 -44.151981
214400000 -2.9595437 -43.281067 19.224131 147.549 -29.56109 44.655228 -3.4004312 -44.322086
215500000 -2.9682221 -43.55912 19.246212 147.34616 -29.496756 43.365967 -3.3874938 -44.585258
216600000 -2.9659088 -43.667759 19.259424 147.14429 -29.585089 44.27113 -3.3900356 -44.65728
217700000 -2.974462 -43.980633 19.257383 146.9747 -29.412876 44.230217 -3.3701301 -44.879627
218800000 -2.9855309 -44.172447 19.269716 146.7403 -28.872049 42.508331 -3.3583817 -45.094185
219900000 -2.977828 -44.341896 19.297035 146.52528 -29.344158 44.097565 -3.35221 -45.273632
221000000 -3.0072258 -44.723343 19.287308 146.19226 -29.200209 43.764755 -3.3278458 -45.560631
222100000 -3.0056632 -44.837811 19.299702 145.97224 -29.104078 42.430214 -3.3233976 -45.941513
223200000 -3.0191922 -45.09761 19.295805 145.7272 -29.077137 42.90184 -3.3277526 -46.207485
224300000 -3.0123181 -45.143517 19.281771 145.47501 -29.085392 43.073978 -3.3442838 -46.563389
225400000 -3.0196764 -45.470825 19.280291 145.20753 -29.1014 42.369152 -3.3356991 -46.91256
226500000 -3.0152998 -45.609608 19.257582 144.96738 -28.997908 42.320057 -3.3517678 -47.129757
227600000 -3.0056481 -45.727467 19.278675 144.82899 -28.90456 44.106991 -3.3452096 -47.515373
228700000 -3.0172451 -46.055504 19.251997 144.51926 -28.907246 41.184029 -3.3793695 -47.529385
229800000 -3.0136073 -46.176937 19.2479 144.43692 -28.792521 41.179718 -3.3846478 -47.879459
230900000 -3.0070393 -46.387733 19.240301 144.18477 -28.953672 42.379192 -3.3895619 -48.110847
232000000 -3.0130222 -46.620808 19.225693 143.98022 -28.784945 42.022316 -3.3997672 -48.254227
233100000 -3.0014086 -46.844215 19.241018 143.79051 -28.844044 41.858727 -3.4078977 -48.436924
234200000 -3.0131874 -47.148518 19.238018 143.60822 -28.953146 41.822895 -3.4178042 -48.689159
235300000 -3.0061216 -47.336914 19.211569 143.38885 -28.815845 39.563431 -3.444067 -48.806889
236400000 -2.9938478 -47.540619 19.207273 143.26489 -28.721769 40.047409 -3.4646914 -48.955437
237500000 -3.0072284 -47.83548 19.199562 143.13435 -28.645863 41.231087 -3.4553242 -49.120575
238600000 -2.9854681 -47.928463 19.184898 142.93253 -28.908987 38.899693 -3.4729242 -49.105782
239700000 -3.0003717 -48.291622 19.188957 142.80026 -28.957575 41.102062 -3.4730978 -49.421509
240800000 -2.9954929 -48.597668 19.186317 142.62779 -28.682398 40.042027 -3.4737587 -49.463322
241900000 -2.9920108 -48.9576 19.191771 142.47443 -28.71973 39.995476 -3.469053 -49.536522
243000000 -2.9895754 -49.115124 19.194176 142.37411 -28.442129 39.68623 -3.4599054 -49.549313
244100000 -2.9877729 -49.446865 19.173845 142.21957 -28.56266 40.098656 -3.4482937 -49.846504
245200000 -2.9953561 -49.769276 19.193869 142.11563 -28.585001 40.046043 -3.4401319 -49.77589
246300000 -2.9828274 -50.24197 19.219572 141.91908 -28.526503 39.575317 -3.428793 -49.972645
247400000 -2.9857593 -50.434433 19.225866 141.81175 -28.443083 39.438957 -3.397104 -50.136093
248500000 -2.9934208 -50.721558 19.22459 141.59039 -28.428915 39.369667 -3.3833432 -50.346291
249600000 -2.9993067 -51.115757 19.244007 141.36971 -28.642479 39.84856 -3.3433666 -50.611782
250700000 -2.9980586 -51.519581 19.224861 141.18462 -28.916492 40.825092 -3.3204961 -50.814476
251800000 -2.9869275 -51.75013 19.248413 140.99852 -28.616407 39.925789 -3.3122945 -51.020954
252900000 -3.0307066 -52.425114 19.278795 140.69806 -28.075089 38.213852 -3.2963815 -51.414593
254000000 -3.0700667 -52.405342 19.223022 140.42377 -28.433546 36.565693 -3.3078978 -51.668884
255100000 -3.0962701 -52.809177 19.260845 140.18872 -28.118479 38.578529 -3.2546537 -51.903732
256200000 -3.1216979 -53.093781 19.232773 139.91763 -28.526556 37.508324 -3.2655087 -52.180798
257300000 -3.106473 -53.504452 19.219601 139.63754 -28.322063 39.295536 -3.2581136 -52.587234
258400000 -3.1284633 -53.626617 19.221329 139.40005 -28.307617 40.412418 -3.2529809 -52.687771
259500000 -3.1884346 -53.846703 19.200087 139.13857 -28.204676 38.984123 -3.2593191 -53.120129
260600000 -3.2135785 -54.037857 19.177862 138.94899 -28.051958 37.394451 -3.2645128 -53.387852
261700000 -3.185019 -54.199257 19.136288 138.72353 -28.111912 40.435688 -3.2497239 -53.578121
262800000 -3.1956682 -54.326893 19.090767 138.49188 -28.142786 40.661446 -3.2532527 -53.781788
263900000 -3.240803 -54.426804 19.077787 138.32204 -27.934843 40.909603 -3.2558436 -54.090755
265000000 -3.2513883 -54.804535 19.05513 138.0666 -28.249889 39.701324 -3.2406573 -54.308205
266100000 -3.2650778 -54.961056 19.028326 137.91106 -27.785612 40.045357 -3.2514739 -54.666275
267200000 -3.2972794 -55.00045 19.023252 137.82147 -28.059963 37.177231 -3.247719 -54.662437
268300000 -3.3076527 -55.395599 18.99811 137.59508 -28.110092 39.367348 -3.237045 -55.088131
269400000 -3.3118 -55.519001 18.981241 137.56238 -27.674849 41.7416 -3.2328455 -55.293884
270500000 -3.3425169 -55.470245 18.936237 137.45815 -27.641544 39.353951 -3.2208977 -55.546581
271600000 -3.3595352 -55.574619 18.948263 137.35574 -27.938379 35.379204 -3.2225838 -55.631432
272700000 -3.3324623 -55.733585 18.904913 137.27385 -27.603037 38.997341 -3.2210164 -56.043045
273800000 -3.3611248 -55.886536 18.912668 137.27278 -27.445847 39.977043 -3.2016244 -56.201027
274900000 -3.3617485 -56.007389 18.898405 137.21252 -27.636906 38.385143 -3.1846523 -56.328331
276000000 -3.3749065 -55.995972 18.883234 137.12274 -27.86764 37.025589 -3.1738462 -56.398315
277100000 -3.3695905 -56.330498 18.899441 137.03754 -27.290552 37.975651 -3.1710041 -56.646812
278200000 -3.4122424 -56.449474 18.907753 136.99373 -27.147783 34.414371 -3.1527565 -56.91259
279300000 -3.4115896 -56.843235 18.930326 136.81189 -27.257301 35.816257 -3.1351848 -57.431305
280400000 -3.4083464 -56.879318 18.883226 136.60762 -27.43157 36.638474 -3.069154 -57.566353
281500000 -3.3790543 -56.835556 18.906189 136.59669 -27.377089 36.920338 -3.0093586 -57.990402
282600000 -3.4084125 -57.057407 18.949554 136.28442 -27.56781 37.028362 -2.9669969 -58.47805
283700000 -3.4289112 -57.01062 18.908659 136.07495 -27.314245 38.734394 -2.9696364 -59.251511
284800000 -3.4083858 -57.40535 18.933401 135.761 -27.676079 35.455914 -2.9575315 -59.733025
285900000 -3.4360218 -57.480194 18.908484 135.69197 -27.056038 37.328102 -2.9747443 -60.751877
287000000 -3.4189768 -57.499416 18.885483 135.41321 -27.390436 36.31982 -3.0242362 -61.204281
288100000 -3.4283397 -57.585743 18.875031 135.30759 -27.594551 35.788879 -3.0510316 -61.675289
289200000 -3.3928123 -57.743896 18.854954 135.24057 -27.482197 35.766178 -3.1074617 -62.179955
290300000 -3.3713794 -57.725838 18.79476 135.21265 -27.611317 32.365047 -3.1756716 -62.293484
291400000 -3.3637168 -58.243057 18.772024 135.20349 -27.365276 35.05706 -3.2622442 -62.544727
292500000 -3.3289683 -58.381016 18.771931 135.25568 -27.47986 33.628784 -3.2908545 -62.38113
293600000 -3.3201802 -58.651798 18.771349 135.424 -27.344357 36.652618 -3.3513691 -62.490009
294700000 -3.2836087 -58.870651 18.796942 135.46915 -27.508106 36.440491 -3.3493593 -62.48484
295800000 -3.2594607 -59.179729 18.793032 135.40997 -27.576136 36.565075 -3.3183193 -62.313217
296900000 -3.2464368 -59.547291 18.841484 135.42259 -27.490429 37.164856 -3.3139522 -62.212002
298000000 -3.2760348 -59.886135 18.858568 135.23924 -27.315657 37.80888 -3.3057706 -62.510529
299100000 -3.2738786 -60.229813 18.90653 135.24765 -27.160105 37.136921 -3.2623146 -62.445026
300200000 -3.2456973 -60.608444 18.919285 134.92293 -27.230581 36.793625 -3.2290282 -62.867657
301300000 -3.2612255 -60.973591 18.96088 134.80174 -27.4072 35.552124 -3.1342726 -63.14085
302400000 -3.2775793 -61.359497 19.010912 134.32205 -27.261703 34.63306 -3.1159136 -63.70866
303500000 -3.2677619 -61.642048 19.00775 134.11345 -27.028706 34.901791 -3.0940447 -63.764183
304600000 -3.3138399 -61.90831 19.018511 133.77975 -26.90045 35.300716 -3.0657284 -64.557739
305700000 -3.309638 -62.221809 19.033314 133.34717 -27.084753 33.475548 -3.0555274 -64.877937
306800000 -3.360364 -62.697239 19.040487 132.87755 -26.696882 34.841923 -3.0685637 -65.609039
307900000 -3.3334365 -62.811382 19.03669 132.56021 -27.167688 32.917473 -3.0602398 -66.069038
309000000 -3.3553658 -62.899246 18.989443 132.1082 -26.810293 35.018402 -3.104172 -66.509956
310100000 -3.4163992 -63.304756 18.98526 131.78833 -27.013674 32.010555 -3.0888953 -66.823776
311200000 -3.4007344 -63.322945 18.955795 131.38609 -27.071802 33.779842 -3.1008785 -67.459877
312300000 -3.4260495 -63.501675 18.939388 131.16759 -26.7987 33.378693 -3.1413624 -67.761841
313400000 -3.458375 -63.733105 18.903191 130.7818 -26.989298 33.488632 -3.1554847 -68.392143
314500000 -3.4658091 -63.862659 18.889351 130.53137 -26.821043 32.456043 -3.2013035 -68.753754
315600000 -3.4870601 -63.988861 18.848911 130.17992 -26.923046 31.546957 -3.223165 -69.014015
316700000 -3.4924874 -64.330109 18.814819 129.94713 -27.089518 33.934013 -3.2511966 -69.463081
317800000 -3.4908266 -64.259949 18.793816 129.72513 -26.989264 29.256058 -3.2701428 -69.799629
318900000 -3.5170684 -64.473213 18.757641 129.48457 -26.910282 31.899715 -3.3217354 -70.127182
320000000 -3.5414751 -64.723839 18.696455 129.22276 -26.844065 32.020432 -3.3558567 -70.435081
321100000 -3.5522871 -64.767784 18.680737 129.10535 -26.678591 31.659979 -3.3962121 -70.551483
322200000 -3.5632648 -65.046097 18.646807 128.88135 -26.685225 32.153782 -3.4159043 -71.029022
323300000 -3.5866504 -65.373459 18.619673 128.68259 -26.883997 32.377476 -3.447757 -71.239838
324400000 -3.5940759 -65.205177 18.587597 128.6208 -26.72847 31.049845 -3.4951048 -71.360672
325500000 -3.609205 -65.388077 18.574682 128.44104 -26.614197 31.931438 -3.5007563 -71.690826
326600000 -3.6168702 -65.5168 18.547613 128.44049 -26.62373 29.928982 -3.5330777 -71.954636
327700000 -3.6161771 -65.783356 18.518476 128.38434 -26.721811 32.517872 -3.5839756 -72.17485
328800000 -3.6603365 -66.000275 18.501087 128.24048 -26.737625 32.56995 -3.603205 -72.530777
